T2208 000:000.591   SEGGER J-Link V7.96p Log File
T2208 000:000.727   DLL Compiled: Jun 27 2024 15:58:03
T2208 000:000.733   Logging started @ 2024-11-04 08:17
T2208 000:000.739   Process: C:\Users\Pole\.eclipse\com.renesas.platform_1435879475\DebugComp\assp-riscv\e2-server-gdb.exe
T2208 000:000.747 - 0.745ms
T2208 000:000.780 JLINK_GetDLLVersion()
T2208 000:000.786 - 0.007ms returns 79616
T2208 000:002.021 JLINK_OpenEx(...)
T2208 000:007.908   Firmware: J-Link OB-RA4M2 compiled May 28 2024 15:43:06
T2208 000:009.358   Firmware: J-Link OB-RA4M2 compiled May 28 2024 15:43:06
T2208 000:025.213   Hardware: V1.00
T2208 000:025.244   S/N: 1088595368
T2208 000:025.252   OEM: SEGGER
T2208 000:025.259   Feature(s): None
T2208 000:026.619   Bootloader: 2021 May 14
T2208 000:027.440   USB speed mode: Full speed (12 MBit/s)
T2208 000:028.003   TELNET listener socket opened on port 19021
T2208 000:028.169   WEBSRV WEBSRV_Init(): Starting webserver thread(s)
T2208 000:028.428   WEBSRV Webserver running on local port 19080
T2208 000:028.674   Looking for J-Link GUI Server exe at: C:\Users\Pole\.eclipse\com.renesas.platform_1435879475\DebugComp\assp-riscv\RISCV\Segger\JLinkGUIServer.exe
T2208 000:028.929   Looking for J-Link GUI Server exe at: \JLinkGUIServer.exe
T2208 000:332.919   Failed to connect to J-Link GUI Server.
T2208 000:333.070 - 331.030ms returns "O.K."
T2208 000:333.282 JLINK_ExecCommand("ProjectFile=C:\Users\Pole\e2_studio\workspace\FreeRTOS_port_prod2/FreeRTOS_port_prod2 HardwareDebug.jlink", ...). 
T2208 000:352.775 - 19.497ms returns 0x00
T2208 000:353.209 JLINK_ExecCommand("device=R9A02G021", ...). 
T2208 000:353.926   Flash bank @ 0x00000000: SFL: Parsing sectorization info from ELF file
T2208 000:353.939     FlashDevice.SectorInfo[0]: .SectorSize = 0x00000800, .SectorStartAddr = 0x00000000
T2208 000:353.945   FlashBank @0x00000000: Sectorization info from SFL ELF file ignored because sectorization override from DLL / XML file is active.
T2208 000:354.006   Flash bank @ 0x00000000: SFL: Parsing sectorization info from ELF file
T2208 000:354.012     FlashDevice.SectorInfo[0]: .SectorSize = 0x00000004, .SectorStartAddr = 0x00000000
T2208 000:354.018   FlashBank @0x01010008: Sectorization info from SFL ELF file ignored because sectorization override from DLL / XML file is active.
T2208 000:354.041   Flash bank @ 0x00000000: SFL: Parsing sectorization info from ELF file
T2208 000:354.047     FlashDevice.SectorInfo[0]: .SectorSize = 0x00000400, .SectorStartAddr = 0x00000000
T2208 000:354.053   FlashBank @0x40100000: Sectorization info from SFL ELF file ignored because sectorization override from DLL / XML file is active.
T2208 000:354.065   Device "R9A02G021" selected.
T2208 000:354.261 - 1.042ms returns 0x00
T2208 000:354.276 JLINK_ExecCommand("SetCPUConnectIDCODE = FFFFFFFFFFFFFFFFFFFFFFFFFFFFFFFF", ...). 
T2208 000:354.283 - 0.001ms returns 0x00
T2208 000:354.291 JLINK_TIF_GetAvailable(...)
T2208 000:354.831 - 0.541ms
T2208 000:354.846 JLINK_TIF_Select(JLINKARM_TIF_CJTAG)
T2208 000:379.448 - 24.601ms returns 0x00
T2208 000:379.514 JLINK_SetSpeed(4000)
T2208 000:379.750 - 0.244ms
T2208 000:379.770 JLINK_SetEndian(ARM_ENDIAN_LITTLE)
T2208 000:379.774 - 0.004ms returns 0
T2208 000:379.779 JLINK_SetInitRegsOnReset(OFF)
T2208 000:379.782 - 0.004ms returns 1
T2208 000:379.787 JLINK_SetResetType(JLINKARM_RESET_TYPE_NORMAL)
T2208 000:379.792 - 0.004ms returns JLINKARM_RESET_TYPE_NORMAL
T2208 000:379.798 JLINK_ExecCommand("DisableFlashBPs", ...). 
T2208 000:379.807 - 0.003ms returns 0x00
T2208 000:379.812 JLINK_ExecCommand("SetAllowFlashCache = 1", ...). 
T2208 000:379.818 - 0.000ms returns 0x01
T2208 000:380.397 JLINK_ExecCommand("SetRestartOnClose = 0", ...). 
T2208 000:380.410 - 0.001ms returns 0x01
T2208 000:380.415 JLINK_EnableSoftBPs(ON)
T2208 000:380.419 - 0.003ms
T2208 000:380.426 JLINK_Connect()
T2208 000:381.057   ConfigTargetSettings() start
T2208 000:381.071    J-Link Script File: Executing ConfigTargetSettings()
T2208 000:381.085   ConfigTargetSettings() end - Took 14us
T2208 000:407.652   TotalIRLen = 5, IRPrint = 0x05
T2208 000:454.953   JTAG chain detection found 1 devices:
T2208 000:455.043    #0 Id: 0x00000001, IRLen: 05, Unknown device
T2208 000:455.088   Assuming RISC-V TAP with DTM setup
T2208 000:455.650   Debug architecture:
T2208 000:455.717     RISC-V debug: 0.13
T2208 000:455.737     AddrBits: 14
T2208 000:455.756     DataBits: 32
T2208 000:455.775     IdleClks: 4
T2208 000:455.811   Memory access:
T2208 000:457.600     Via system bus: No
T2208 000:458.762     Via ProgBuf: Yes (8 ProgBuf entries)
T2208 000:458.802     Via abstract command (AAM): May be tried as last resort
T2208 000:458.820   DataBuf: 4 entries
T2208 000:461.188     autoexec[0] implemented: Yes
T2208 000:470.644   Detected: RV32 core
T2208 000:471.516   -- Max. mem block: 0x0001D9B8
T2208 000:473.174   Temp. halting CPU for for feature detection...
T2208 000:514.512   HW instruction/data BPs: 4
T2208 000:514.557   Support set/clr BPs while running: No
T2208 000:519.949   HW data BPs trigger before execution of inst
T2208 000:521.888   CSR access via abs. commands: Yes
T2208 000:521.916   Compressed instruction support: Yes
T2208 000:521.929   Feature detection done. Restarting core...
T2208 000:526.189   BG memory access support: No
T2208 000:526.233   SetupTarget() start
T2208 000:526.246    J-Link Script File: Executing SetupTarget()
T2208 000:526.260   Memory access: CPU temp. halted: https://wiki.segger.com/Memory_accesses#Stop_mode
T2208 000:526.274   CPU_ReadMem(2 bytes @ 0x4001E3FE)
T2208 000:534.310   CPU is running
T2208 000:534.355   CPU_WriteMem(2 bytes @ 0x4001E3FE)
T2208 000:541.750   CPU is running
T2208 000:541.807   CPU_WriteMem(1 bytes @ 0x4001E40E)
T2208 000:549.411   CPU is running
T2208 000:549.478   CPU_WriteMem(2 bytes @ 0x4001E3FE)
T2208 000:556.948   SetupTarget() end - Took 30.6ms
T2208 000:557.081   Initializing 12288 bytes work RAM @ 0x20004000
T2208 000:557.117   RISC-V: Performing reset via <ndmreset>
T2208 000:734.774   CPU_WriteMem(12288 bytes @ 0x20004000)
T2208 002:372.873 - 1992.443ms returns 0x00
T2208 002:372.978 JLINK_ResetPullsRESET(ON)
T2208 002:372.994 - 0.017ms
T2208 002:373.030 JLINK_Halt()
T2208 002:374.302 - 1.269ms returns 0x00
T2208 002:374.399 JLINK_IsHalted()
T2208 002:374.419 - 0.020ms returns TRUE
T2208 002:374.437 JLINK_Reset()
T2208 002:374.472   RISC-V: Performing reset via <ndmreset>
T2208 002:549.628 - 175.189ms
T2208 002:549.714 JLINK_SetEndian(ARM_ENDIAN_LITTLE)
T2208 002:549.730 - 0.016ms returns 0
T2208 002:549.748 JLINK_IsHalted()
T2208 002:549.764 - 0.015ms returns TRUE
T12FC 004:772.249 JLINK_BeginDownload(Flags = 0x00000000)
T12FC 004:772.296 - 0.048ms
T12FC 004:790.519 JLINK_IsHalted()
T12FC 004:791.654 - 1.134ms returns TRUE
T12FC 004:791.697 JLINK_WriteMem(0x00000000, 0x94 Bytes, ...)
T12FC 004:791.703   Data:  97 11 00 00 93 81 01 80 17 71 00 20 13 01 41 FF ...
T12FC 004:791.959   completely In flash
T12FC 004:791.970 - 0.273ms returns 0x94
T12FC 004:792.563 JLINK_IsHalted()
T12FC 004:792.578 - 0.015ms returns TRUE
T12FC 004:792.585 JLINK_WriteMem(0x000000C0, 0xCC Bytes, ...)
T12FC 004:792.591   Data:  1E 18 00 00 1E 18 00 00 1E 18 00 00 12 17 00 00 ...
T12FC 004:792.601   completely In flash
T12FC 004:792.609 - 0.024ms returns 0xCC
T12FC 004:793.044 JLINK_IsHalted()
T12FC 004:793.059 - 0.014ms returns TRUE
T12FC 004:793.066 JLINK_WriteMem(0x000001C0, 0x4 Bytes, ...)
T12FC 004:793.072   Data:  44 18 00 00
T12FC 004:793.082   completely In flash
T12FC 004:793.090 - 0.023ms returns 0x4
T12FC 004:793.383 JLINK_IsHalted()
T12FC 004:793.400 - 0.016ms returns TRUE
T12FC 004:793.408 JLINK_WriteMem(0x00000400, 0x4 Bytes, ...)
T12FC 004:793.415   Data:  FF FF FF FF
T12FC 004:793.429   completely In flash
T12FC 004:793.453 - 0.044ms returns 0x4
T12FC 004:793.846 JLINK_IsHalted()
T12FC 004:793.861 - 0.015ms returns TRUE
T12FC 004:793.868 JLINK_WriteMem(0x00000404, 0x4 Bytes, ...)
T12FC 004:793.874   Data:  FF CF FF FF
T12FC 004:793.883   completely In flash
T12FC 004:793.891 - 0.023ms returns 0x4
T12FC 004:794.265 JLINK_IsHalted()
T12FC 004:794.279 - 0.014ms returns TRUE
T12FC 004:794.285 JLINK_WriteMem(0x00000408, 0x34 Bytes, ...)
T12FC 004:794.289   Data:  FF FF FF FF FF FF FF FF FF FF FF FF FF FF FF FF ...
T12FC 004:794.297   completely In flash
T12FC 004:794.304 - 0.019ms returns 0x34
T12FC 004:794.629 JLINK_IsHalted()
T12FC 004:794.642 - 0.013ms returns TRUE
T12FC 004:794.648 JLINK_WriteMem(0x00000800, 0x10 Bytes, ...)
T12FC 004:794.653   Data:  FF FF FF FF FF FF FF FF FF FF FF FF FF FF FF FF
T12FC 004:794.661   completely In flash
T12FC 004:794.667 - 0.019ms returns 0x10
T12FC 004:795.057 JLINK_IsHalted()
T12FC 004:795.071 - 0.014ms returns TRUE
T12FC 004:795.079 JLINK_WriteMem(0x00000810, 0x550 Bytes, ...)
T12FC 004:795.085   Data:  60 45 00 20 AA AA AA AA 04 40 00 20 E8 03 00 00 ...
T12FC 004:795.096   completely In flash
T12FC 004:795.115 - 0.037ms returns 0x550
T12FC 004:795.554 JLINK_IsHalted()
T12FC 004:795.569 - 0.014ms returns TRUE
T12FC 004:795.576 JLINK_WriteMem(0x00000E00, 0xB70 Bytes, ...)
T12FC 004:795.581   Data:  B7 02 10 00 32 05 13 05 35 33 12 05 0D 05 23 A0 ...
T12FC 004:795.605   completely In flash
T12FC 004:795.613 - 0.037ms returns 0xB70
T12FC 004:796.113 JLINK_IsHalted()
T12FC 004:796.126 - 0.012ms returns TRUE
T12FC 004:796.131 JLINK_WriteMem(0x00001970, 0xB70 Bytes, ...)
T12FC 004:796.136   Data:  A5 02 33 75 C5 40 23 95 A5 02 83 96 85 02 01 45 ...
T12FC 004:796.148   completely In flash
T12FC 004:796.155 - 0.024ms returns 0xB70
T12FC 004:796.653 JLINK_IsHalted()
T12FC 004:796.668 - 0.015ms returns TRUE
T12FC 004:796.674 JLINK_WriteMem(0x000024E0, 0xB80 Bytes, ...)
T12FC 004:796.679   Data:  00 00 00 00 00 00 00 00 00 00 00 00 00 00 00 00 ...
T12FC 004:796.693   completely In flash
T12FC 004:796.702 - 0.028ms returns 0xB80
T12FC 004:797.121 JLINK_IsHalted()
T12FC 004:797.133 - 0.012ms returns TRUE
T12FC 004:797.139 JLINK_WriteMem(0x00003060, 0xB70 Bytes, ...)
T12FC 004:797.144   Data:  26 CA 4A C8 4E C6 52 C4 2E 89 2A 84 41 C5 28 40 ...
T12FC 004:797.160   completely In flash
T12FC 004:797.167 - 0.028ms returns 0xB70
T12FC 004:797.526 JLINK_IsHalted()
T12FC 004:797.539 - 0.012ms returns TRUE
T12FC 004:797.545 JLINK_WriteMem(0x00003BD0, 0xB80 Bytes, ...)
T12FC 004:797.557   Data:  03 25 05 59 48 45 08 41 B7 45 00 20 23 AE A5 58 ...
T12FC 004:797.570   completely In flash
T12FC 004:797.577 - 0.033ms returns 0xB80
T12FC 004:797.930 JLINK_IsHalted()
T12FC 004:797.943 - 0.012ms returns TRUE
T12FC 004:797.949 JLINK_WriteMem(0x00004750, 0xB90 Bytes, ...)
T12FC 004:797.953   Data:  10 45 50 C4 10 45 23 22 26 01 23 24 25 01 48 54 ...
T12FC 004:797.962   completely In flash
T12FC 004:797.969 - 0.020ms returns 0xB90
T12FC 004:798.324 JLINK_IsHalted()
T12FC 004:798.337 - 0.012ms returns TRUE
T12FC 004:798.343 JLINK_WriteMem(0x000052E0, 0xB80 Bytes, ...)
T12FC 004:798.348   Data:  19 C1 01 45 82 80 37 45 00 20 03 25 05 57 82 80 ...
T12FC 004:798.367   completely In flash
T12FC 004:798.374 - 0.031ms returns 0xB80
T12FC 004:798.711 JLINK_IsHalted()
T12FC 004:798.724 - 0.012ms returns TRUE
T12FC 004:798.730 JLINK_WriteMem(0x00005E60, 0xB70 Bytes, ...)
T12FC 004:798.735   Data:  B7 75 00 00 93 85 75 2C 13 06 00 10 05 47 05 44 ...
T12FC 004:798.743   completely In flash
T12FC 004:798.750 - 0.020ms returns 0xB70
T12FC 004:799.071 JLINK_IsHalted()
T12FC 004:799.084 - 0.012ms returns TRUE
T12FC 004:799.090 JLINK_WriteMem(0x000069D0, 0x8AA Bytes, ...)
T12FC 004:799.095   Data:  71 9A 85 8A 63 88 E5 04 D0 C1 91 EE 98 40 99 8C ...
T12FC 004:799.114   completely In flash
T12FC 004:799.121 - 0.031ms returns 0x8AA
T12FC 004:799.418 JLINK_IsHalted()
T12FC 004:799.443 - 0.025ms returns TRUE
T12FC 004:799.451 JLINK_WriteMem(0x0000727C, 0xB8 Bytes, ...)
T12FC 004:799.460   Data:  00 6C DC 02 00 12 7A 00 00 80 00 00 00 2D 31 01 ...
T12FC 004:799.471   completely In flash
T12FC 004:799.490 - 0.039ms returns 0xB8
T12FC 004:800.098 JLINK_IsHalted()
T12FC 004:800.113 - 0.014ms returns TRUE
T12FC 004:800.118 JLINK_WriteMem(0x01010008, 0x4 Bytes, ...)
T12FC 004:800.127   Data:  FF FF FF FF
T12FC 004:800.335   completely In flash
T12FC 004:800.354 - 0.236ms returns 0x4
T12FC 004:800.759 JLINK_IsHalted()
T12FC 004:800.775 - 0.015ms returns TRUE
T12FC 004:800.782 JLINK_WriteMem(0x01010010, 0x4 Bytes, ...)
T12FC 004:800.789   Data:  FF FF FF FF
T12FC 004:800.799   completely In flash
T12FC 004:800.808 - 0.025ms returns 0x4
T12FC 004:801.056 JLINK_IsHalted()
T12FC 004:801.068 - 0.011ms returns TRUE
T12FC 004:801.075 JLINK_WriteMem(0x01010018, 0x4 Bytes, ...)
T12FC 004:801.092   Data:  FF FF FF FF
T12FC 004:801.103   completely In flash
T12FC 004:801.112 - 0.037ms returns 0x4
T12FC 004:801.481 JLINK_IsHalted()
T12FC 004:801.494 - 0.012ms returns TRUE
T12FC 004:801.501 JLINK_WriteMem(0x01010020, 0x4 Bytes, ...)
T12FC 004:801.507   Data:  FF FF FF FF
T12FC 004:801.518   completely In flash
T12FC 004:801.538 - 0.036ms returns 0x4
T12FC 004:801.857 JLINK_IsHalted()
T12FC 004:801.871 - 0.014ms returns TRUE
T12FC 004:801.877 JLINK_WriteMem(0x01010028, 0x4 Bytes, ...)
T12FC 004:801.884   Data:  FF FF FF FF
T12FC 004:801.895   completely In flash
T12FC 004:801.912 - 0.034ms returns 0x4
T12FC 004:802.273 JLINK_IsHalted()
T12FC 004:802.289 - 0.015ms returns TRUE
T12FC 004:802.295 JLINK_WriteMem(0x01010030, 0x4 Bytes, ...)
T12FC 004:802.307   Data:  FF FF FF FF
T12FC 004:802.315   completely In flash
T12FC 004:802.321 - 0.026ms returns 0x4
T12FC 004:802.685 JLINK_ReadReg(X0)
T12FC 004:802.974    -- --------------------------------------
T12FC 004:803.013    -- Start of determining flash info (Bank @ 0x00000000)
T12FC 004:803.029    -- End of determining flash info
T12FC 004:803.039    -- Start of determining dirty areas in flash cache
T12FC 004:803.049    -- Filling invalid ranges in sector buffer (flash cache) for sector @ 0x00000000 if necessary
T12FC 004:803.059    -- Filling invalid ranges in sector buffer (flash cache) for sector @ 0x00000800 if necessary
T12FC 004:803.069    -- Filling invalid ranges in sector buffer (flash cache) for sector @ 0x00001000 if necessary
T12FC 004:803.081    -- Filling invalid ranges in sector buffer (flash cache) for sector @ 0x00001800 if necessary
T12FC 004:803.089    -- Filling invalid ranges in sector buffer (flash cache) for sector @ 0x00002000 if necessary
T12FC 004:803.097    -- Filling invalid ranges in sector buffer (flash cache) for sector @ 0x00002800 if necessary
T12FC 004:803.105    -- Filling invalid ranges in sector buffer (flash cache) for sector @ 0x00003000 if necessary
T12FC 004:803.113    -- Filling invalid ranges in sector buffer (flash cache) for sector @ 0x00003800 if necessary
T12FC 004:803.120    -- Filling invalid ranges in sector buffer (flash cache) for sector @ 0x00004000 if necessary
T12FC 004:803.128    -- Filling invalid ranges in sector buffer (flash cache) for sector @ 0x00004800 if necessary
T12FC 004:803.135    -- Filling invalid ranges in sector buffer (flash cache) for sector @ 0x00005000 if necessary
T12FC 004:803.143    -- Filling invalid ranges in sector buffer (flash cache) for sector @ 0x00005800 if necessary
T12FC 004:803.150    -- Filling invalid ranges in sector buffer (flash cache) for sector @ 0x00006000 if necessary
T12FC 004:803.158    -- Filling invalid ranges in sector buffer (flash cache) for sector @ 0x00006800 if necessary
T12FC 004:803.169    -- Filling invalid ranges in sector buffer (flash cache) for sector @ 0x00007000 if necessary
T12FC 004:803.193    -- End of determining dirty areas
T12FC 004:803.199    -- Start of preparing flash programming
T12FC 004:803.207    -- Preparing RAMCode
T12FC 004:803.213    -- Calculating RAM usage
T12FC 004:803.219    -- RAM usage = 12288 Bytes
T12FC 004:803.225    -- Preserving CPU registers
T12FC 004:803.242    -- Preparing memory
T12FC 004:803.248    -- Preparing target
T12FC 004:803.255    -- Preserving target RAM temporarily used for programming
T12FC 006:284.293    -- Downloading RAMCode
T12FC 007:218.412    -- Initializing RAMCode (InitType: 3 = Verify)
T12FC 007:218.587    -- Executing SEGGER_FL_Prepare(3)
T12FC 007:258.422    -- SEGGER_FL_Prepare() changed clock speed to 48000000Hz
T12FC 007:258.513    -- End of preparing flash programming
T12FC 007:258.556    -- CPU is running at 48000 kHz.
T12FC 007:258.578    -- Start of comparing flash
T12FC 007:258.601    -- CRC check was estimated as fastest method
T12FC 007:258.629    -- Comparing range 0x0000 - 0x77FF (15 Sectors, 30 KB), using single-block CRC calculation
T12FC 007:258.653    -- Recalculating RAMUsage for optimal performance during programming
T12FC 007:258.677    -- RAM usage changed from 12288 to 8272 Bytes
T12FC 007:296.577    -- CRC does not match, checking individual sectors
T12FC 007:296.622    -- Recalculating RAMUsage for optimal performance during programming
T12FC 007:296.637    -- RAM usage changed from 12288 to 8272 Bytes
T12FC 007:333.701    -- CRC does not match for sectors 0-14
T12FC 007:333.777    -- End of comparing flash
T12FC 007:333.801    -- Start of erasing sectors
T12FC 007:333.827    -- Erasing range 0x00000000 - 0x000077FF ( 15 Sectors, 30 KB)
T12FC 007:333.850    -- Recalculating RAMUsage for optimal performance during programming
T12FC 007:333.873    -- RAM usage changed from 12288 to 8272 Bytes
T12FC 007:463.959    -- End of erasing sectors
T12FC 007:464.006    -- Start of flash programming
T12FC 007:464.027    -- Programming range 0x00000000 - 0x000077FF ( 15 Sectors, 30 KB)
T12FC 007:464.045    -- Recalculating RAMUsage for optimal performance during programming
T12FC 007:464.063    -- RAM usage changed from 12288 to 8272 Bytes
T12FC 008:541.777    -- End of flash programming
T12FC 008:541.832    -- 0x0000 - 0x77FF ( 15 Sectors, 30 KB)
T12FC 008:541.852    -- Start of verifying flash
T12FC 008:541.872    -- Checksum calculation was estimated as fastest method
T12FC 008:541.890    -- Checksum is not supported by this flash bank. Switched to read back method.
T12FC 008:541.910    -- Recalculating RAMUsage for optimal performance during programming
T12FC 008:541.929    -- RAM usage changed from 12288 to 8272 Bytes
T12FC 008:579.612    -- End of verifying flash
T12FC 008:579.706    -- Start of restoring
T12FC 008:579.730    -- Executing SEGGER_FL_Restore()
T12FC 008:634.086    -- Restoring target memory
T12FC 010:271.823    -- Restoring CPU registers
T12FC 010:271.933    -- End of restoring
T12FC 010:271.962    -- Bank 0 @ 0x00000000: 1 range affected (30720 bytes)
T12FC 010:271.992    -- Total: 5.468s (Prepare: 2.455s, Compare: 0.075s, Erase: 0.130s, Program: 1.077s, Verify: 0.037s, Restore: 1.692s)
T12FC 010:272.017    -- Program speed: 27 KB/s
T12FC 010:272.042    -- --------------------------------------
T12FC 010:272.065    -- Start of determining flash info (Bank @ 0x01010008)
T12FC 010:272.088    -- End of determining flash info
T12FC 010:272.110    -- Start of determining dirty areas in flash cache
T12FC 010:272.134    -- Filling invalid ranges in sector buffer (flash cache) for sector @ 0x01010008 if necessary
T12FC 010:272.162    -- Filling invalid ranges in sector buffer (flash cache) for sector @ 0x01010010 if necessary
T12FC 010:272.186    -- Filling invalid ranges in sector buffer (flash cache) for sector @ 0x01010018 if necessary
T12FC 010:272.210    -- Filling invalid ranges in sector buffer (flash cache) for sector @ 0x01010020 if necessary
T12FC 010:272.234    -- Filling invalid ranges in sector buffer (flash cache) for sector @ 0x01010028 if necessary
T12FC 010:272.257    -- Filling invalid ranges in sector buffer (flash cache) for sector @ 0x01010030 if necessary
T12FC 010:272.279    -- End of determining dirty areas
T12FC 010:272.301    -- Start of preparing flash programming
T12FC 010:272.322    -- Preparing RAMCode
T12FC 010:272.342    -- Calculating RAM usage
T12FC 010:272.365    -- RAM usage = 5320 Bytes
T12FC 010:272.386    -- Preserving CPU registers
T12FC 010:272.434    -- Preparing memory
T12FC 010:272.454    -- Preparing target
T12FC 010:272.474    -- Preserving target RAM temporarily used for programming
T12FC 010:914.219    -- Downloading RAMCode
T12FC 011:878.712    -- Initializing RAMCode (InitType: 3 = Verify)
T12FC 011:878.785    -- Executing SEGGER_FL_Prepare(3)
T12FC 011:944.154    -- SEGGER_FL_Prepare() changed clock speed to 48000000Hz
T12FC 011:944.218    -- End of preparing flash programming
T12FC 011:944.249    -- CPU is running at 48000 kHz.
T12FC 011:944.290    -- Start of comparing flash
T12FC 011:944.314    -- CRC check was estimated as fastest method
T12FC 011:944.341    -- Comparing range 0x1010008 - 0x101000B (1 Sector, 4 Bytes), using single-block CRC calculation
T12FC 011:944.366    -- Recalculating RAMUsage for optimal performance during programming
T12FC 011:944.390    -- RAM usage changed from 5320 to 8392 Bytes
T12FC 012:094.907    -- CRC matches
T12FC 012:094.978    -- Comparing range 0x1010010 - 0x1010013 (1 Sector, 4 Bytes), using single-block CRC calculation
T12FC 012:095.004    -- Recalculating RAMUsage for optimal performance during programming
T12FC 012:121.068    -- CRC matches
T12FC 012:121.143    -- Comparing range 0x1010018 - 0x101001B (1 Sector, 4 Bytes), using single-block CRC calculation
T12FC 012:121.170    -- Recalculating RAMUsage for optimal performance during programming
T12FC 012:147.648    -- CRC matches
T12FC 012:147.722    -- Comparing range 0x1010020 - 0x1010023 (1 Sector, 4 Bytes), using single-block CRC calculation
T12FC 012:147.750    -- Recalculating RAMUsage for optimal performance during programming
T12FC 012:174.234    -- CRC matches
T12FC 012:174.307    -- Comparing range 0x1010028 - 0x101002B (1 Sector, 4 Bytes), using single-block CRC calculation
T12FC 012:174.334    -- Recalculating RAMUsage for optimal performance during programming
T12FC 012:199.242    -- CRC matches
T12FC 012:199.299    -- Comparing range 0x1010030 - 0x1010033 (1 Sector, 4 Bytes), using single-block CRC calculation
T12FC 012:199.321    -- Recalculating RAMUsage for optimal performance during programming
T12FC 012:225.395    -- CRC matches
T12FC 012:225.464    -- Comparing range 0x1010008 - 0x101000B (1 Sector, 4 Bytes), using alternative single-block CRC calculation
T12FC 012:225.491    -- Recalculating RAMUsage for optimal performance during programming
T12FC 012:251.704    -- CRC matches
T12FC 012:251.771    -- Comparing range 0x1010010 - 0x1010013 (1 Sector, 4 Bytes), using alternative single-block CRC calculation
T12FC 012:251.798    -- Recalculating RAMUsage for optimal performance during programming
T12FC 012:277.683    -- CRC matches
T12FC 012:277.754    -- Comparing range 0x1010018 - 0x101001B (1 Sector, 4 Bytes), using alternative single-block CRC calculation
T12FC 012:277.782    -- Recalculating RAMUsage for optimal performance during programming
T12FC 012:304.388    -- CRC matches
T12FC 012:304.462    -- Comparing range 0x1010020 - 0x1010023 (1 Sector, 4 Bytes), using alternative single-block CRC calculation
T12FC 012:304.488    -- Recalculating RAMUsage for optimal performance during programming
T12FC 012:331.244    -- CRC matches
T12FC 012:331.318    -- Comparing range 0x1010028 - 0x101002B (1 Sector, 4 Bytes), using alternative single-block CRC calculation
T12FC 012:331.346    -- Recalculating RAMUsage for optimal performance during programming
T12FC 012:357.096    -- CRC matches
T12FC 012:357.166    -- Comparing range 0x1010030 - 0x1010033 (1 Sector, 4 Bytes), using alternative single-block CRC calculation
T12FC 012:357.193    -- Recalculating RAMUsage for optimal performance during programming
T12FC 012:383.250    -- CRC matches
T12FC 012:383.314    -- End of comparing flash
T12FC 012:383.338    -- Start of erasing sectors
T12FC 012:383.360    -- End of erasing sectors
T12FC 012:383.381    -- Start of flash programming
T12FC 012:383.402    -- End of flash programming
T12FC 012:383.423    -- Start of verifying flash
T12FC 012:383.443    -- End of verifying flash
T12FC 012:383.463    -- Start of restoring
T12FC 012:383.486    -- Executing SEGGER_FL_Restore()
T12FC 012:437.746    -- Restoring target memory
T12FC 013:565.107    -- Restoring CPU registers
T12FC 013:565.216    -- End of restoring
T12FC 013:565.245    -- Bank 1 @ 0x01010008: Skipped. Contents already match
T12FC 013:565.269    -- Bank 1 @ 0x01010008: Skipped. Contents already match
T12FC 013:567.230 - 8764.545ms returns 0x00000000
T12FC 013:567.334 JLINK_ReadReg(X1)
T12FC 013:568.485 - 1.148ms returns 0x00000000
T12FC 013:568.574 JLINK_ReadReg(X2)
T12FC 013:568.603 - 0.028ms returns 0x00000000
T12FC 013:571.141 JLINK_ReadReg(X3)
T12FC 013:571.190 - 0.048ms returns 0x00000000
T12FC 013:571.213 JLINK_ReadReg(X4)
T12FC 013:571.229 - 0.016ms returns 0x00000000
T12FC 013:571.246 JLINK_ReadReg(X5)
T12FC 013:571.261 - 0.014ms returns 0x00000000
T12FC 013:571.277 JLINK_ReadReg(X6)
T12FC 013:571.291 - 0.014ms returns 0x00000000
T12FC 013:571.307 JLINK_ReadReg(X7)
T12FC 013:571.322 - 0.014ms returns 0x00000000
T12FC 013:571.338 JLINK_ReadReg(X8)
T12FC 013:571.352 - 0.014ms returns 0x00000000
T12FC 013:571.366 JLINK_ReadReg(X9)
T12FC 013:571.381 - 0.013ms returns 0x00000000
T12FC 013:571.397 JLINK_ReadReg(X10)
T12FC 013:571.411 - 0.014ms returns 0x00000000
T12FC 013:571.427 JLINK_ReadReg(X11)
T12FC 013:571.442 - 0.013ms returns 0x00000000
T12FC 013:571.458 JLINK_ReadReg(X12)
T12FC 013:571.470 - 0.013ms returns 0x00000000
T12FC 013:571.486 JLINK_ReadReg(X13)
T12FC 013:571.501 - 0.013ms returns 0x00000000
T12FC 013:571.517 JLINK_ReadReg(X14)
T12FC 013:571.531 - 0.014ms returns 0x00000000
T12FC 013:571.547 JLINK_ReadReg(X15)
T12FC 013:571.560 - 0.013ms returns 0x00000000
T12FC 013:571.576 JLINK_ReadReg(X16)
T12FC 013:571.590 - 0.013ms returns 0x00000000
T12FC 013:571.605 JLINK_ReadReg(X17)
T12FC 013:571.619 - 0.013ms returns 0x00000000
T12FC 013:571.635 JLINK_ReadReg(X18)
T12FC 013:571.650 - 0.013ms returns 0x00000000
T12FC 013:571.666 JLINK_ReadReg(X19)
T12FC 013:571.680 - 0.013ms returns 0x00000000
T12FC 013:571.696 JLINK_ReadReg(X20)
T12FC 013:571.710 - 0.014ms returns 0x00000000
T12FC 013:571.725 JLINK_ReadReg(X21)
T12FC 013:571.739 - 0.014ms returns 0x00000000
T12FC 013:571.755 JLINK_ReadReg(X22)
T12FC 013:571.770 - 0.013ms returns 0x00000000
T12FC 013:571.784 JLINK_ReadReg(X23)
T12FC 013:571.798 - 0.013ms returns 0x00000000
T12FC 013:571.814 JLINK_ReadReg(X24)
T12FC 013:571.827 - 0.013ms returns 0x00000000
T12FC 013:571.843 JLINK_ReadReg(X25)
T12FC 013:571.858 - 0.013ms returns 0x00000000
T12FC 013:571.872 JLINK_ReadReg(X26)
T12FC 013:571.886 - 0.013ms returns 0x00000000
T12FC 013:571.901 JLINK_ReadReg(X27)
T12FC 013:571.915 - 0.014ms returns 0x00000000
T12FC 013:571.931 JLINK_ReadReg(X28)
T12FC 013:571.946 - 0.014ms returns 0x00000000
T12FC 013:571.962 JLINK_ReadReg(X29)
T12FC 013:571.978 - 0.014ms returns 0x00000000
T12FC 013:571.992 JLINK_ReadReg(X30)
T12FC 013:572.006 - 0.013ms returns 0x00000000
T12FC 013:572.021 JLINK_ReadReg(X31)
T12FC 013:572.035 - 0.014ms returns 0x00000000
T12FC 013:572.051 JLINK_ReadReg(PC)
T12FC 013:572.066 - 0.014ms returns 0x00000000
T12FC 013:573.448 JLINK_WriteReg(PC, 0x00000000)
T12FC 013:573.491 - 0.043ms returns 0
T12FC 013:600.802 JLINK_EndDownload()
T12FC 013:600.880 - 0.076ms returns 0 (0x0)
T12FC 013:601.302 JLINK_SetEndian(ARM_ENDIAN_LITTLE)
T12FC 013:601.322 - 0.018ms returns 0
T12FC 013:602.896 JLINK_ResetPullsRESET(ON)
T12FC 013:602.941 - 0.045ms
T12FC 013:602.955 JLINK_Halt()
T12FC 013:602.970 - 0.013ms returns 0x00
T12FC 013:602.984 JLINK_IsHalted()
T12FC 013:602.997 - 0.013ms returns TRUE
T12FC 013:603.011 JLINK_Reset()
T12FC 013:603.034   RISC-V: Performing reset via <ndmreset>
T12FC 013:778.947 - 175.935ms
T12FC 013:779.070 JLINK_SetEndian(ARM_ENDIAN_LITTLE)
T12FC 013:779.086 - 0.016ms returns 0
T12FC 013:837.622 JLINK_IsHalted()
T12FC 013:837.653 - 0.031ms returns TRUE
T12FC 013:837.662 JLINK_ReadMem(0x00005E00, 0x40 Bytes, ...)
T12FC 013:837.690    -- Read from flash cache (64 bytes @ 0x00005E00)
T12FC 013:837.701   Data:  22 C4 26 C2 4A C0 EF B0 AF FD 37 04 04 40 B7 44 ...
T12FC 013:837.710 - 0.048ms returns 0
T12FC 013:838.030 JLINK_IsHalted()
T12FC 013:838.054 - 0.024ms returns TRUE
T12FC 013:838.064 JLINK_ReadMem(0x00005E34, 0x4 Bytes, ...)
T12FC 013:838.070    -- Read from flash cache (4 bytes @ 0x00005E34)
T12FC 013:838.080   Data:  03 25 C9 00
T12FC 013:838.090 - 0.026ms returns 0
T12FC 013:838.536 JLINK_GetNumBPUnits(Type = 0xFFFFFF00)
T12FC 013:838.552 - 0.016ms returns 0x04
T12FC 013:838.560 JLINK_GetNumWPUnits()
T12FC 013:838.566 - 0.006ms returns 4
T12FC 013:838.579 JLINK_GetNumBPUnits(Type = 0xFFFFFF00)
T12FC 013:838.584 - 0.005ms returns 0x04
T12FC 013:838.592 JLINK_GetNumWPUnits()
T12FC 013:838.595 - 0.004ms returns 4
T12FC 013:838.606 JLINK_GetNumBPUnits(Type = 0xFFFFFF00)
T12FC 013:838.611 - 0.006ms returns 0x04
T12FC 013:838.619 JLINK_GetNumWPUnits()
T12FC 013:838.624 - 0.004ms returns 4
T12FC 013:838.651 JLINK_SetBPEx(Addr = 0x00005E34, Type = 0xFFFFFF00)
T12FC 013:838.664 - 0.012ms returns 0x00000001
T12FC 014:147.630 JLINK_ClrBPEx(BPHandle = 0x00000001)
T12FC 014:147.661 - 0.030ms returns 0x00
T12FC 014:147.686 JLINK_SetBPEx(Addr = 0x00005E34, Type = 0xFFFFFF00)
T12FC 014:147.693 - 0.007ms returns 0x00000002
T12FC 014:147.699 JLINK_SetBPEx(Addr = 0x00005E3E, Type = 0xFFFFFF00)
T12FC 014:147.704 - 0.004ms returns 0x00000003
T12FC 014:147.715 JLINK_ClrBPEx(BPHandle = 0x00000002)
T12FC 014:147.720 - 0.005ms returns 0x00
T12FC 014:147.725 JLINK_ClrBPEx(BPHandle = 0x00000003)
T12FC 014:147.730 - 0.004ms returns 0x00
T12FC 014:147.736 JLINK_SetBPEx(Addr = 0x00005E34, Type = 0xFFFFFF00)
T12FC 014:147.741 - 0.004ms returns 0x00000004
T12FC 014:159.056 JLINK_IsHalted()
T12FC 014:159.083 - 0.027ms returns TRUE
T12FC 014:159.090 JLINK_ReadMem(0x00005E40, 0x40 Bytes, ...)
T12FC 014:159.096    -- Read from flash cache (64 bytes @ 0x00005E40)
T12FC 014:159.104   Data:  06 C6 22 C4 37 15 00 00 13 05 05 F8 13 65 15 00 ...
T12FC 014:159.110 - 0.021ms returns 0
T12FC 014:159.245 JLINK_IsHalted()
T12FC 014:159.253 - 0.008ms returns TRUE
T12FC 014:159.258 JLINK_ReadMem(0x00005E40, 0x2 Bytes, ...)
T12FC 014:159.264    -- Read from flash cache (2 bytes @ 0x00005E40)
T12FC 014:159.270   Data:  06 C6
T12FC 014:159.277 - 0.018ms returns 0
T12FC 014:159.530 JLINK_ClrBPEx(BPHandle = 0x00000004)
T12FC 014:159.541 - 0.011ms returns 0x00
T12FC 014:159.549 JLINK_SetBPEx(Addr = 0x00005E34, Type = 0xFFFFFF00)
T12FC 014:159.555 - 0.006ms returns 0x00000005
T12FC 014:159.560 JLINK_SetBPEx(Addr = 0x00005E40, Type = 0xFFFFFF00)
T12FC 014:159.565 - 0.004ms returns 0x00000006
T12FC 014:230.390 JLINK_ReadReg(X0)
T12FC 014:230.432 - 0.042ms returns 0x00000000
T12FC 014:230.445 JLINK_ReadReg(X1)
T12FC 014:230.454 - 0.009ms returns 0x00000000
T12FC 014:230.464 JLINK_ReadReg(X2)
T12FC 014:230.472 - 0.008ms returns 0x00000000
T12FC 014:230.483 JLINK_ReadReg(X3)
T12FC 014:230.493 - 0.009ms returns 0x00000000
T12FC 014:230.502 JLINK_ReadReg(X4)
T12FC 014:230.510 - 0.007ms returns 0x00000000
T12FC 014:230.518 JLINK_ReadReg(X5)
T12FC 014:230.525 - 0.007ms returns 0x00000000
T12FC 014:230.534 JLINK_ReadReg(X6)
T12FC 014:230.541 - 0.007ms returns 0x00000000
T12FC 014:230.550 JLINK_ReadReg(X7)
T12FC 014:230.558 - 0.007ms returns 0x00000000
T12FC 014:230.565 JLINK_ReadReg(X8)
T12FC 014:230.573 - 0.008ms returns 0x00000000
T12FC 014:230.582 JLINK_ReadReg(X9)
T12FC 014:230.590 - 0.008ms returns 0x00000000
T12FC 014:230.600 JLINK_ReadReg(X10)
T12FC 014:230.611 - 0.011ms returns 0x00000000
T12FC 014:230.621 JLINK_ReadReg(X11)
T12FC 014:230.630 - 0.008ms returns 0x00000000
T12FC 014:230.638 JLINK_ReadReg(X12)
T12FC 014:230.648 - 0.008ms returns 0x00000000
T12FC 014:230.656 JLINK_ReadReg(X13)
T12FC 014:230.667 - 0.010ms returns 0x00000000
T12FC 014:230.677 JLINK_ReadReg(X14)
T12FC 014:230.686 - 0.008ms returns 0x00000000
T12FC 014:230.694 JLINK_ReadReg(X15)
T12FC 014:230.704 - 0.008ms returns 0x00000000
T12FC 014:230.712 JLINK_ReadReg(X16)
T12FC 014:230.722 - 0.008ms returns 0x00000000
T12FC 014:230.731 JLINK_ReadReg(X17)
T12FC 014:230.739 - 0.008ms returns 0x00000000
T12FC 014:230.749 JLINK_ReadReg(X18)
T12FC 014:230.827 - 0.078ms returns 0x00000000
T12FC 014:230.842 JLINK_ReadReg(X19)
T12FC 014:230.851 - 0.009ms returns 0x00000000
T12FC 014:230.862 JLINK_ReadReg(X20)
T12FC 014:230.870 - 0.008ms returns 0x00000000
T12FC 014:230.880 JLINK_ReadReg(X21)
T12FC 014:230.890 - 0.008ms returns 0x00000000
T12FC 014:230.901 JLINK_ReadReg(X22)
T12FC 014:230.910 - 0.009ms returns 0x00000000
T12FC 014:230.918 JLINK_ReadReg(X23)
T12FC 014:230.926 - 0.007ms returns 0x00000000
T12FC 014:230.934 JLINK_ReadReg(X24)
T12FC 014:230.942 - 0.007ms returns 0x00000000
T12FC 014:230.952 JLINK_ReadReg(X25)
T12FC 014:230.960 - 0.007ms returns 0x00000000
T12FC 014:230.968 JLINK_ReadReg(X26)
T12FC 014:230.978 - 0.009ms returns 0x00000000
T12FC 014:230.987 JLINK_ReadReg(X27)
T12FC 014:230.995 - 0.007ms returns 0x00000000
T12FC 014:231.003 JLINK_ReadReg(X28)
T12FC 014:231.011 - 0.007ms returns 0x00000000
T12FC 014:231.022 JLINK_ReadReg(X29)
T12FC 014:231.030 - 0.007ms returns 0x00000000
T12FC 014:231.038 JLINK_ReadReg(X30)
T12FC 014:231.045 - 0.007ms returns 0x00000000
T12FC 014:231.053 JLINK_ReadReg(X31)
T12FC 014:231.061 - 0.007ms returns 0x00000000
T12FC 014:231.069 JLINK_ReadReg(PC)
T12FC 014:231.077 - 0.007ms returns 0x00000000
T21D8 014:271.563 JLINK_GetNumBPUnits(Type = 0xFFFFFF00)
T21D8 014:271.592 - 0.040ms returns 0x04
T21D8 014:271.598 JLINK_GetNumWPUnits()
T21D8 014:271.605 - 0.005ms returns 4
T21D8 014:271.933 JLINK_GetNumBPUnits(Type = 0xFFFFFF00)
T21D8 014:271.949 - 0.016ms returns 0x04
T21D8 014:271.955 JLINK_GetNumWPUnits()
T21D8 014:271.962 - 0.005ms returns 4
T21D8 014:272.614 JLINK_GetNumBPUnits(Type = 0xFFFFFF00)
T21D8 014:272.630 - 0.015ms returns 0x04
T21D8 014:272.637 JLINK_GetNumWPUnits()
T21D8 014:272.642 - 0.005ms returns 4
T21D8 014:272.867 JLINK_GetNumBPUnits(Type = 0xFFFFFF00)
T21D8 014:272.902 - 0.035ms returns 0x04
T21D8 014:272.910 JLINK_GetNumWPUnits()
T21D8 014:272.918 - 0.008ms returns 4
T21D8 014:273.254 JLINK_GetNumBPUnits(Type = 0xFFFFFF00)
T21D8 014:273.270 - 0.015ms returns 0x04
T21D8 014:273.286 JLINK_GetNumWPUnits()
T21D8 014:273.293 - 0.005ms returns 4
T21D8 014:273.552 JLINK_GetNumBPUnits(Type = 0xFFFFFF00)
T21D8 014:273.568 - 0.014ms returns 0x04
T21D8 014:273.574 JLINK_GetNumWPUnits()
T21D8 014:273.579 - 0.005ms returns 4
T21D8 014:273.798 JLINK_GetNumBPUnits(Type = 0xFFFFFF00)
T21D8 014:273.813 - 0.014ms returns 0x04
T21D8 014:273.819 JLINK_GetNumWPUnits()
T21D8 014:273.826 - 0.005ms returns 4
T21D8 014:273.955 JLINK_GetNumBPUnits(Type = 0xFFFFFF00)
T21D8 014:273.966 - 0.011ms returns 0x04
T21D8 014:273.974 JLINK_GetNumWPUnits()
T21D8 014:273.979 - 0.005ms returns 4
T12FC 022:577.406 JLINK_GoEx(MaxEmulInsts = 0, Flags = 0x01)
T12FC 022:613.128   Memory map 'after startup completion point' is active
T12FC 022:613.162 - 35.757ms
T12FC 022:710.528 JLINK_IsHalted()
T12FC 022:728.988 - 18.457ms returns TRUE
T12FC 022:730.792 JLINK_ReadReg(X0)
T12FC 022:730.864 - 0.070ms returns 0x00000000
T12FC 022:730.884 JLINK_ReadReg(X1)
T12FC 022:730.898 - 0.014ms returns 0x00000090
T12FC 022:730.916 JLINK_ReadReg(X2)
T12FC 022:730.930 - 0.014ms returns 0x20006FEC
T12FC 022:730.948 JLINK_ReadReg(X3)
T12FC 022:730.962 - 0.013ms returns 0x00000800
T12FC 022:730.978 JLINK_ReadReg(X4)
T12FC 022:730.992 - 0.014ms returns 0x00000000
T12FC 022:731.008 JLINK_ReadReg(X5)
T12FC 022:731.020 - 0.014ms returns 0x00000008
T12FC 022:731.036 JLINK_ReadReg(X6)
T12FC 022:731.052 - 0.014ms returns 0x00000000
T12FC 022:731.068 JLINK_ReadReg(X7)
T12FC 022:731.082 - 0.014ms returns 0x00000000
T12FC 022:731.098 JLINK_ReadReg(X8)
T12FC 022:731.110 - 0.013ms returns 0x20006FFC
T12FC 022:731.126 JLINK_ReadReg(X9)
T12FC 022:731.140 - 0.014ms returns 0x00000000
T12FC 022:731.156 JLINK_ReadReg(X10)
T12FC 022:731.172 - 0.014ms returns 0x00000000
T12FC 022:731.188 JLINK_ReadReg(X11)
T12FC 022:731.202 - 0.014ms returns 0x00000000
T12FC 022:731.218 JLINK_ReadReg(X12)
T12FC 022:731.230 - 0.013ms returns 0x00000000
T12FC 022:731.246 JLINK_ReadReg(X13)
T12FC 022:731.270 - 0.023ms returns 0x00004002
T12FC 022:731.292 JLINK_ReadReg(X14)
T12FC 022:731.306 - 0.014ms returns 0x00000001
T12FC 022:731.322 JLINK_ReadReg(X15)
T12FC 022:731.336 - 0.014ms returns 0x00000001
T12FC 022:731.350 JLINK_ReadReg(X16)
T12FC 022:731.364 - 0.013ms returns 0x20000000
T12FC 022:731.380 JLINK_ReadReg(X17)
T12FC 022:731.396 - 0.013ms returns 0x00000020
T12FC 022:731.410 JLINK_ReadReg(X18)
T12FC 022:731.424 - 0.013ms returns 0x00000000
T12FC 022:731.440 JLINK_ReadReg(X19)
T12FC 022:731.452 - 0.013ms returns 0x00000000
T12FC 022:731.470 JLINK_ReadReg(X20)
T12FC 022:731.484 - 0.014ms returns 0x00000000
T12FC 022:731.500 JLINK_ReadReg(X21)
T12FC 022:731.514 - 0.013ms returns 0x00000000
T12FC 022:731.530 JLINK_ReadReg(X22)
T12FC 022:731.542 - 0.013ms returns 0x00000000
T12FC 022:731.558 JLINK_ReadReg(X23)
T12FC 022:731.572 - 0.013ms returns 0x00000000
T12FC 022:731.588 JLINK_ReadReg(X24)
T12FC 022:731.602 - 0.013ms returns 0x00000000
T12FC 022:731.618 JLINK_ReadReg(X25)
T12FC 022:731.632 - 0.013ms returns 0x00000000
T12FC 022:731.646 JLINK_ReadReg(X26)
T12FC 022:731.660 - 0.014ms returns 0x00000000
T12FC 022:731.676 JLINK_ReadReg(X27)
T12FC 022:731.692 - 0.014ms returns 0x00000000
T12FC 022:731.706 JLINK_ReadReg(X28)
T12FC 022:731.720 - 0.013ms returns 0x00000000
T12FC 022:731.738 JLINK_ReadReg(X29)
T12FC 022:731.752 - 0.014ms returns 0x00000000
T12FC 022:731.768 JLINK_ReadReg(X30)
T12FC 022:731.782 - 0.013ms returns 0x00000000
T12FC 022:731.796 JLINK_ReadReg(X31)
T12FC 022:731.812 - 0.013ms returns 0x00000000
T12FC 022:731.828 JLINK_ReadReg(PC)
T12FC 022:731.842 - 0.014ms returns 0x00005E40
T12FC 022:735.594 JLINK_ClrBPEx(BPHandle = 0x00000005)
T12FC 022:735.628 - 0.034ms returns 0x00
T12FC 022:735.640 JLINK_ClrBPEx(BPHandle = 0x00000006)
T12FC 022:735.652 - 0.010ms returns 0x00
T12FC 022:735.668 JLINK_SetBPEx(Addr = 0x00005E34, Type = 0xFFFFFF00)
T12FC 022:735.680 - 0.013ms returns 0x00000007
T21D8 023:737.684 JLINK_IsHalted()
T21D8 023:738.494 - 0.810ms returns TRUE
T12FC 023:969.580 JLINK_GoEx(MaxEmulInsts = 0, Flags = 0x01)
T12FC 023:978.454 - 8.873ms
T12FC 024:086.066 JLINK_IsHalted()
T12FC 024:104.728 - 18.661ms returns TRUE
T12FC 024:106.482 JLINK_ReadReg(X0)
T12FC 024:106.520 - 0.038ms returns 0x00000000
T12FC 024:106.534 JLINK_ReadReg(X1)
T12FC 024:106.548 - 0.012ms returns 0x00005E0A
T12FC 024:106.572 JLINK_ReadReg(X2)
T12FC 024:106.586 - 0.011ms returns 0x200049C0
T12FC 024:106.598 JLINK_ReadReg(X3)
T12FC 024:106.610 - 0.011ms returns 0x00000800
T12FC 024:106.622 JLINK_ReadReg(X4)
T12FC 024:106.636 - 0.011ms returns 0x00000000
T12FC 024:106.648 JLINK_ReadReg(X5)
T12FC 024:106.660 - 0.011ms returns 0xFFFFFFFF
T12FC 024:106.672 JLINK_ReadReg(X6)
T12FC 024:106.684 - 0.011ms returns 0xE6000008
T12FC 024:106.696 JLINK_ReadReg(X7)
T12FC 024:106.708 - 0.011ms returns 0xA5A5A5A5
T12FC 024:106.720 JLINK_ReadReg(X8)
T12FC 024:106.732 - 0.011ms returns 0x40040000
T12FC 024:106.744 JLINK_ReadReg(X9)
T12FC 024:106.756 - 0.011ms returns 0x20004000
T12FC 024:106.772 JLINK_ReadReg(X10)
T12FC 024:106.784 - 0.011ms returns 0x00000001
T12FC 024:106.796 JLINK_ReadReg(X11)
T12FC 024:106.808 - 0.011ms returns 0x00000001
T12FC 024:106.820 JLINK_ReadReg(X12)
T12FC 024:106.832 - 0.011ms returns 0x00000000
T12FC 024:106.850 JLINK_ReadReg(X13)
T12FC 024:106.860 - 0.011ms returns 0x00000000
T12FC 024:106.876 JLINK_ReadReg(X14)
T12FC 024:106.886 - 0.012ms returns 0xA5A5A5A5
T12FC 024:106.900 JLINK_ReadReg(X15)
T12FC 024:106.910 - 0.011ms returns 0xA5A5A5A5
T12FC 024:106.924 JLINK_ReadReg(X16)
T12FC 024:106.934 - 0.011ms returns 0xA5A5A5A5
T12FC 024:106.948 JLINK_ReadReg(X17)
T12FC 024:106.960 - 0.011ms returns 0xA5A5A5A5
T12FC 024:106.972 JLINK_ReadReg(X18)
T12FC 024:106.984 - 0.011ms returns 0x20004000
T12FC 024:106.996 JLINK_ReadReg(X19)
T12FC 024:107.008 - 0.011ms returns 0xA5A5A5A5
T12FC 024:107.020 JLINK_ReadReg(X20)
T12FC 024:107.034 - 0.011ms returns 0xA5A5A5A5
T12FC 024:107.046 JLINK_ReadReg(X21)
T12FC 024:107.058 - 0.011ms returns 0xA5A5A5A5
T12FC 024:107.088 JLINK_ReadReg(X22)
T12FC 024:107.100 - 0.011ms returns 0xA5A5A5A5
T12FC 024:107.112 JLINK_ReadReg(X23)
T12FC 024:107.124 - 0.011ms returns 0xA5A5A5A5
T12FC 024:107.136 JLINK_ReadReg(X24)
T12FC 024:107.148 - 0.011ms returns 0xA5A5A5A5
T12FC 024:107.160 JLINK_ReadReg(X25)
T12FC 024:107.172 - 0.011ms returns 0xA5A5A5A5
T12FC 024:107.184 JLINK_ReadReg(X26)
T12FC 024:107.196 - 0.011ms returns 0xA5A5A5A5
T12FC 024:107.208 JLINK_ReadReg(X27)
T12FC 024:107.220 - 0.011ms returns 0xA5A5A5A5
T12FC 024:107.232 JLINK_ReadReg(X28)
T12FC 024:107.244 - 0.011ms returns 0xA5A5A5A5
T12FC 024:107.258 JLINK_ReadReg(X29)
T12FC 024:107.268 - 0.011ms returns 0xA5A5A5A5
T12FC 024:107.282 JLINK_ReadReg(X30)
T12FC 024:107.292 - 0.011ms returns 0xA5A5A5A5
T12FC 024:107.306 JLINK_ReadReg(X31)
T12FC 024:107.316 - 0.011ms returns 0xA5A5A5A5
T12FC 024:107.330 JLINK_ReadReg(PC)
T12FC 024:107.342 - 0.011ms returns 0x00005E34
T12FC 024:126.844 JLINK_IsHalted()
T12FC 024:126.876 - 0.032ms returns TRUE
T12FC 024:126.882 JLINK_ReadMem(0x200049C0, 0x40 Bytes, ...)
T12FC 024:126.944   CPU_ReadMem(64 bytes @ 0x200049C0)
T12FC 024:131.182    -- Updating C cache (64 bytes @ 0x200049C0)
T12FC 024:131.200    -- Read from C cache (64 bytes @ 0x200049C0)
T12FC 024:131.210   Data:  A5 A5 A5 A5 A5 A5 A5 A5 A5 A5 A5 A5 FC 5D 00 00 ...
T12FC 024:131.218 - 4.335ms returns 0
T12FC 024:134.814 JLINK_IsHalted()
T12FC 024:134.870 - 0.056ms returns TRUE
T12FC 024:134.876 JLINK_ReadMem(0x200061F0, 0x2 Bytes, ...)
T12FC 024:134.892   CPU_ReadMem(64 bytes @ 0x200061C0)
T12FC 024:139.396    -- Updating C cache (64 bytes @ 0x200061C0)
T12FC 024:139.428    -- Read from C cache (2 bytes @ 0x200061F0)
T12FC 024:139.436   Data:  01 00
T12FC 024:139.444 - 4.567ms returns 0
T12FC 024:139.844 JLINK_IsHalted()
T12FC 024:139.860 - 0.015ms returns TRUE
T12FC 024:139.866 JLINK_ReadMem(0x200061F2, 0x2 Bytes, ...)
T12FC 024:139.876    -- Read from C cache (2 bytes @ 0x200061F2)
T12FC 024:139.884   Data:  00 00
T12FC 024:139.892 - 0.025ms returns 0
T12FC 024:140.234 JLINK_IsHalted()
T12FC 024:140.248 - 0.014ms returns TRUE
T12FC 024:140.256 JLINK_ReadMem(0x200061F4, 0x2 Bytes, ...)
T12FC 024:140.264    -- Read from C cache (2 bytes @ 0x200061F4)
T12FC 024:140.272   Data:  F8 61
T12FC 024:140.280 - 0.025ms returns 0
T12FC 024:140.696 JLINK_IsHalted()
T12FC 024:140.710 - 0.014ms returns TRUE
T12FC 024:140.716 JLINK_ReadMem(0x200061F6, 0x2 Bytes, ...)
T12FC 024:140.726    -- Read from C cache (2 bytes @ 0x200061F6)
T12FC 024:140.734   Data:  00 20
T12FC 024:140.742 - 0.025ms returns 0
T12FC 024:873.672 JLINK_ClrBPEx(BPHandle = 0x00000007)
T12FC 024:874.460 - 0.786ms returns 0x00
T12FC 024:875.276 JLINK_Step()
T12FC 024:875.302    -- Read from flash cache (2 bytes @ 0x00005E34)
T12FC 024:875.328    -- Read from flash cache (2 bytes @ 0x00005E36)
T12FC 024:875.364   CPU_ReadMem(64 bytes @ 0x20004000)
T12FC 024:879.682    -- Updating C cache (64 bytes @ 0x20004000)
T12FC 024:879.718    -- Read from C cache (4 bytes @ 0x2000400C)
T12FC 024:879.734   -- Simulated
T12FC 024:879.742 - 4.467ms returns 0
T12FC 024:880.736 JLINK_IsHalted()
T12FC 024:880.752 - 0.016ms returns TRUE
T12FC 024:880.760 JLINK_ReadMem(0x00005E00, 0x40 Bytes, ...)
T12FC 024:880.770    -- Read from flash cache (64 bytes @ 0x00005E00)
T12FC 024:880.792   Data:  22 C4 26 C2 4A C0 EF B0 AF FD 37 04 04 40 B7 44 ...
T12FC 024:880.804 - 0.043ms returns 0
T12FC 024:881.194 JLINK_SetBPEx(Addr = 0x00005E34, Type = 0xFFFFFF00)
T12FC 024:881.244 - 0.050ms returns 0x00000008
T12FC 024:882.324 JLINK_ReadReg(X0)
T12FC 024:882.380 - 0.055ms returns 0x00000000
T12FC 024:882.390 JLINK_ReadReg(X1)
T12FC 024:882.396 - 0.005ms returns 0x00005E0A
T12FC 024:882.404 JLINK_ReadReg(X2)
T12FC 024:882.410 - 0.005ms returns 0x200049C0
T12FC 024:882.414 JLINK_ReadReg(X3)
T12FC 024:882.420 - 0.005ms returns 0x00000800
T12FC 024:882.428 JLINK_ReadReg(X4)
T12FC 024:882.436 - 0.008ms returns 0x00000000
T12FC 024:882.444 JLINK_ReadReg(X5)
T12FC 024:882.454 - 0.011ms returns 0xFFFFFFFF
T12FC 024:882.484 JLINK_ReadReg(X6)
T12FC 024:882.492 - 0.005ms returns 0xE6000008
T12FC 024:882.502 JLINK_ReadReg(X7)
T12FC 024:882.508 - 0.005ms returns 0xA5A5A5A5
T12FC 024:882.514 JLINK_ReadReg(X8)
T12FC 024:882.522 - 0.007ms returns 0x40040000
T12FC 024:882.528 JLINK_ReadReg(X9)
T12FC 024:882.532 - 0.005ms returns 0x20004000
T12FC 024:882.556 JLINK_ReadReg(X10)
T12FC 024:882.562 - 0.005ms returns 0x000003E8
T12FC 024:882.568 JLINK_ReadReg(X11)
T12FC 024:882.574 - 0.005ms returns 0x00000001
T12FC 024:882.580 JLINK_ReadReg(X12)
T12FC 024:882.586 - 0.005ms returns 0x00000000
T12FC 024:882.592 JLINK_ReadReg(X13)
T12FC 024:882.596 - 0.005ms returns 0x00000000
T12FC 024:882.604 JLINK_ReadReg(X14)
T12FC 024:882.610 - 0.005ms returns 0xA5A5A5A5
T12FC 024:882.614 JLINK_ReadReg(X15)
T12FC 024:882.620 - 0.005ms returns 0xA5A5A5A5
T12FC 024:882.628 JLINK_ReadReg(X16)
T12FC 024:882.632 - 0.005ms returns 0xA5A5A5A5
T12FC 024:882.638 JLINK_ReadReg(X17)
T12FC 024:882.644 - 0.005ms returns 0xA5A5A5A5
T12FC 024:882.650 JLINK_ReadReg(X18)
T12FC 024:882.662 - 0.012ms returns 0x20004000
T12FC 024:882.668 JLINK_ReadReg(X19)
T12FC 024:882.674 - 0.005ms returns 0xA5A5A5A5
T12FC 024:882.680 JLINK_ReadReg(X20)
T12FC 024:882.686 - 0.005ms returns 0xA5A5A5A5
T12FC 024:882.692 JLINK_ReadReg(X21)
T12FC 024:882.698 - 0.005ms returns 0xA5A5A5A5
T12FC 024:882.704 JLINK_ReadReg(X22)
T12FC 024:882.708 - 0.005ms returns 0xA5A5A5A5
T12FC 024:882.716 JLINK_ReadReg(X23)
T12FC 024:882.722 - 0.006ms returns 0xA5A5A5A5
T12FC 024:882.728 JLINK_ReadReg(X24)
T12FC 024:882.734 - 0.005ms returns 0xA5A5A5A5
T12FC 024:882.740 JLINK_ReadReg(X25)
T12FC 024:882.746 - 0.005ms returns 0xA5A5A5A5
T12FC 024:882.752 JLINK_ReadReg(X26)
T12FC 024:882.756 - 0.005ms returns 0xA5A5A5A5
T12FC 024:882.764 JLINK_ReadReg(X27)
T12FC 024:882.768 - 0.005ms returns 0xA5A5A5A5
T12FC 024:882.774 JLINK_ReadReg(X28)
T12FC 024:882.780 - 0.005ms returns 0xA5A5A5A5
T12FC 024:882.792 JLINK_ReadReg(X29)
T12FC 024:882.798 - 0.005ms returns 0xA5A5A5A5
T12FC 024:882.804 JLINK_ReadReg(X30)
T12FC 024:882.810 - 0.005ms returns 0xA5A5A5A5
T12FC 024:882.816 JLINK_ReadReg(X31)
T12FC 024:882.822 - 0.005ms returns 0xA5A5A5A5
T12FC 024:882.828 JLINK_ReadReg(PC)
T12FC 024:882.834 - 0.005ms returns 0x00005E38
T12FC 024:884.048 JLINK_GoEx(MaxEmulInsts = 0, Flags = 0x01)
T12FC 024:891.488 - 7.440ms
T12FC 024:991.628 JLINK_IsHalted()
T12FC 025:009.696 - 18.066ms returns TRUE
T12FC 025:011.370 JLINK_ReadReg(X0)
T12FC 025:011.434 - 0.064ms returns 0x00000000
T12FC 025:011.452 JLINK_ReadReg(X1)
T12FC 025:011.466 - 0.013ms returns 0x00005E3C
T12FC 025:011.480 JLINK_ReadReg(X2)
T12FC 025:011.494 - 0.013ms returns 0x200049C0
T12FC 025:011.508 JLINK_ReadReg(X3)
T12FC 025:011.522 - 0.012ms returns 0x00000800
T12FC 025:011.538 JLINK_ReadReg(X4)
T12FC 025:011.550 - 0.012ms returns 0x00000000
T12FC 025:011.564 JLINK_ReadReg(X5)
T12FC 025:011.580 - 0.013ms returns 0xFFFFFFFF
T12FC 025:011.594 JLINK_ReadReg(X6)
T12FC 025:011.606 - 0.012ms returns 0x20006000
T12FC 025:011.620 JLINK_ReadReg(X7)
T12FC 025:011.636 - 0.013ms returns 0xA5A5A5A5
T12FC 025:011.650 JLINK_ReadReg(X8)
T12FC 025:011.662 - 0.012ms returns 0x40040000
T12FC 025:011.676 JLINK_ReadReg(X9)
T12FC 025:011.702 - 0.025ms returns 0x20004000
T12FC 025:011.716 JLINK_ReadReg(X10)
T12FC 025:011.732 - 0.013ms returns 0x00000002
T12FC 025:011.746 JLINK_ReadReg(X11)
T12FC 025:011.758 - 0.013ms returns 0x00000001
T12FC 025:011.772 JLINK_ReadReg(X12)
T12FC 025:011.786 - 0.012ms returns 0x00000000
T12FC 025:011.800 JLINK_ReadReg(X13)
T12FC 025:011.814 - 0.012ms returns 0x200062C0
T12FC 025:011.828 JLINK_ReadReg(X14)
T12FC 025:011.842 - 0.013ms returns 0x200062C0
T12FC 025:011.856 JLINK_ReadReg(X15)
T12FC 025:011.870 - 0.013ms returns 0xFFFFFFFF
T12FC 025:011.884 JLINK_ReadReg(X16)
T12FC 025:011.898 - 0.012ms returns 0xA5A5A5A5
T12FC 025:011.910 JLINK_ReadReg(X17)
T12FC 025:011.924 - 0.014ms returns 0xA5A5A5A5
T12FC 025:011.938 JLINK_ReadReg(X18)
T12FC 025:011.960 - 0.023ms returns 0x20004000
T12FC 025:011.972 JLINK_ReadReg(X19)
T12FC 025:011.984 - 0.010ms returns 0xA5A5A5A5
T12FC 025:012.020 JLINK_ReadReg(X20)
T12FC 025:012.030 - 0.011ms returns 0xA5A5A5A5
T12FC 025:012.044 JLINK_ReadReg(X21)
T12FC 025:012.052 - 0.010ms returns 0xA5A5A5A5
T12FC 025:012.066 JLINK_ReadReg(X22)
T12FC 025:012.076 - 0.010ms returns 0xA5A5A5A5
T12FC 025:012.088 JLINK_ReadReg(X23)
T12FC 025:012.100 - 0.010ms returns 0xA5A5A5A5
T12FC 025:012.110 JLINK_ReadReg(X24)
T12FC 025:012.122 - 0.010ms returns 0xA5A5A5A5
T12FC 025:012.132 JLINK_ReadReg(X25)
T12FC 025:012.144 - 0.010ms returns 0xA5A5A5A5
T12FC 025:012.156 JLINK_ReadReg(X26)
T12FC 025:012.166 - 0.010ms returns 0xA5A5A5A5
T12FC 025:012.180 JLINK_ReadReg(X27)
T12FC 025:012.188 - 0.010ms returns 0xA5A5A5A5
T12FC 025:012.202 JLINK_ReadReg(X28)
T12FC 025:012.212 - 0.010ms returns 0xA5A5A5A5
T12FC 025:012.226 JLINK_ReadReg(X29)
T12FC 025:012.236 - 0.011ms returns 0xA5A5A5A5
T12FC 025:012.248 JLINK_ReadReg(X30)
T12FC 025:012.260 - 0.010ms returns 0xA5A5A5A5
T12FC 025:012.270 JLINK_ReadReg(X31)
T12FC 025:012.282 - 0.010ms returns 0xA5A5A5A5
T12FC 025:012.292 JLINK_ReadReg(PC)
T12FC 025:012.306 - 0.011ms returns 0x00005E34
T12FC 025:028.962 JLINK_IsHalted()
T12FC 025:030.404 - 1.442ms returns TRUE
T12FC 025:030.438 JLINK_ReadMem(0x200049C0, 0x40 Bytes, ...)
T12FC 025:030.468   CPU_ReadMem(64 bytes @ 0x200049C0)
T12FC 025:034.904    -- Updating C cache (64 bytes @ 0x200049C0)
T12FC 025:034.940    -- Read from C cache (64 bytes @ 0x200049C0)
T12FC 025:034.952   Data:  A5 A5 A5 A5 A5 A5 A5 A5 A5 A5 A5 A5 FC 5D 00 00 ...
T12FC 025:034.960 - 4.521ms returns 0
T12FC 025:035.870 JLINK_IsHalted()
T12FC 025:035.914 - 0.043ms returns TRUE
